
T1C54 000:277 SEGGER J-Link V5.12 Log File (0000ms, 0264ms total)
T1C54 000:277 DLL Compiled: Mar 30 2016 17:28:31 (0000ms, 0264ms total)
T1C54 000:277 Logging started @ 2016-05-30 18:13 (0000ms, 0264ms total)
T1C54 000:277 JLINK_SetWarnOutHandler(...) (0000ms, 0264ms total)
T1C54 000:277 JLINK_OpenEx(...)
Firmware: J-Link ARM-OB STM32 compiled Aug 22 2012 19:52:04
Hardware: V7.00
S/N: 20160311
Feature(s): RDI,FlashDL,FlashBP,JFlash,GDBFull  returns O.K. (0271ms, 0535ms total)
T1C54 000:548 JLINK_SetErrorOutHandler(...) (0000ms, 0535ms total)
T1C54 000:548 JLINK_ExecCommand("ProjectFile = "D:\Flir Camera\CubeMX\cubeMXLCD\MDK-ARM\JLinkSettings.ini"", ...)  returns 0x00 (0001ms, 0536ms total)
T1C54 000:549 JLINK_ExecCommand("Device = STM32L051C8", ...)Device "STM32L051C8" selected.  returns 0x00 (0001ms, 0537ms total)
T1C54 000:550 JLINK_ExecCommand("DisableConnectionTimeout", ...)  returns 0x01 (0000ms, 0537ms total)
T1C54 000:550 JLINK_GetHardwareVersion()  returns 0x11170 (0000ms, 0537ms total)
T1C54 000:550 JLINK_GetDLLVersion()  returns 51200 (0000ms, 0537ms total)
T1C54 000:550 JLINK_GetFirmwareString(...) (0000ms, 0537ms total)
T1C54 000:550 JLINK_GetDLLVersion()  returns 51200 (0000ms, 0537ms total)
T1C54 000:550 JLINK_GetCompileDateTime() (0000ms, 0537ms total)
T1C54 000:550 JLINK_GetFirmwareString(...) (0000ms, 0537ms total)
T1C54 000:551 JLINK_GetHardwareVersion()  returns 0x11170 (0000ms, 0537ms total)
T1C54 000:551 JLINK_TIF_Select(JLINKARM_TIF_SWD)  returns 0x00 (0001ms, 0538ms total)
T1C54 000:552 JLINK_SetSpeed(5000) (0000ms, 0538ms total)
T1C54 000:552 JLINK_GetId() >0x108 TIF>Found SWD-DP with ID 0x0BC11477 >0x0D TIF> >0x28 TIF> >0x0D TIF> >0x28 TIF> >0x0D TIF> >0x28 TIF> >0x0D TIF> >0x28 TIF> >0x0D TIF> >0x21 TIF> >0x0D TIF> >0x28 TIF> >0x0D TIF> >0x28 TIF> >0x0D TIF> >0x28 TIF> >0x0D TIF> >0x21 TIF> >0x0D TIF> >0x21 TIF> >0x0D TIF> >0x28 TIF> >0x0D TIF> >0x21 TIF> >0x0D TIF> >0x21 TIF> >0x0D TIF> >0x28 TIF> >0x0D TIF> >0x21 TIF> >0x0D TIF> >0x21 TIF> >0x0D TIF> >0x28 TIF> >0x0D TIF> >0x28 TIF> >0x0D TIF> >0x28 TIF> >0x0D TIF>
 >0x21 TIF> >0x0D TIF> >0x21 TIF> >0x0D TIF> >0x28 TIF> >0x0D TIF> >0x28 TIF> >0x0D TIF> >0x28 TIF> >0x0D TIF> >0x21 TIF> >0x0D TIF> >0x21 TIF> >0x0D TIF> >0x28 TIF> >0x0D TIF> >0x28 TIF> >0x0D TIF> >0x28 TIF> >0x0D TIF> >0x21 TIF> >0x0D TIF> >0x21 TIF> >0x0D TIF> >0x28 TIF> >0x0D TIF> >0x21 TIF> >0x0D TIF> >0x21 TIF> >0x0D TIF> >0x28 TIF> >0x0D TIF> >0x21 TIF> >0x0D TIF> >0x21 TIF> >0x0D TIF> >0x28 TIF> >0x0D TIF> >0x21 TIF> >0x0D TIF> >0x21 TIF> >0x0D TIF> >0x28 TIF> >0x0D TIF> >0x21 TIF> >0x0D TIF>
 >0x21 TIF> >0x108 TIF>Found SWD-DP with ID 0x0BC11477 >0x0D TIF> >0x28 TIF> >0x0D TIF> >0x28 TIF> >0x0D TIF> >0x28 TIF> >0x0D TIF> >0x28 TIF> >0x0D TIF> >0x21 TIF> >0x0D TIF> >0x28 TIF> >0x0D TIF> >0x28 TIF> >0x0D TIF> >0x21 TIF> >0x0D TIF> >0x21 TIF> >0x0D TIF> >0x21 TIF> >0x0D TIF> >0x28 TIF> >0x0D TIF> >0x28 TIF> >0x0D TIF> >0x28 TIF> >0x0D TIF> >0x21 TIF> >0x0D TIF> >0x21 TIF> >0x0D TIF> >0x28 TIF> >0x0D TIF> >0x21 TIF> >0x0D TIF> >0x21 TIF>Found Cortex-M0 r0p1, Little endian.
 -- CPU_ReadMem(4 bytes @ 0xE000EDF0) -- CPU_ReadMem(4 bytes @ 0xE0002000)FPUnit: 4 code (BP) slots and 0 literal slots -- CPU_ReadMem(4 bytes @ 0xE000EDFC) -- CPU_ReadMem(4 bytes @ 0xE0001000) -- CPU_WriteMem(4 bytes @ 0xE0001000)CoreSight components:ROMTbl 0 @ F0000000 -- CPU_ReadMem(16 bytes @ 0xF0000000) -- CPU_ReadMem(16 bytes @ 0xE00FFFF0) -- CPU_ReadMem(16 bytes @ 0xE00FFFE0)ROMTbl 0 [0]: F00FF000, CID: B105100D, PID: 000BB4C0 ROM TableROMTbl 1 @ E00FF000 -- CPU_ReadMem(16 bytes @ 0xE00FF000)
 -- CPU_ReadMem(16 bytes @ 0xE000EFF0) -- CPU_ReadMem(16 bytes @ 0xE000EFE0)ROMTbl 1 [0]: FFF0F000, CID: B105E00D, PID: 000BB008 SCS -- CPU_ReadMem(16 bytes @ 0xE0001FF0) -- CPU_ReadMem(16 bytes @ 0xE0001FE0)ROMTbl 1 [1]: FFF02000, CID: B105E00D, PID: 000BB00A DWT -- CPU_ReadMem(16 bytes @ 0xE0002FF0) -- CPU_ReadMem(16 bytes @ 0xE0002FE0)ROMTbl 1 [2]: FFF03000, CID: B105E00D, PID: 000BB00B FPB -- CPU_WriteMem(8192 bytes @ 0x20000000) -- CPU_ReadMem(4 bytes @ 0xE0001000)
 -- CPU_WriteMem(4 bytes @ 0xE0001000) >0x0D TIF> >0x21 TIF>  returns 0x0BC11477 (0139ms, 0677ms total)
T1C54 000:691 JLINK_GetDLLVersion()  returns 51200 (0000ms, 0677ms total)
T1C54 000:691 JLINK_CORE_GetFound()  returns 0x60000FF (0000ms, 0677ms total)
T1C54 000:691 JLINK_GetDebugInfo(0x100) -- Value=0xF0000000  returns 0x00 (0000ms, 0677ms total)
T1C54 000:691 JLINK_GetDebugInfo(0x100) -- Value=0xF0000000  returns 0x00 (0000ms, 0677ms total)
T1C54 000:691 JLINK_GetDebugInfo(0x101) -- Value=0x00000000  returns 0x00 (0000ms, 0677ms total)
T1C54 000:691 JLINK_ReadMem (0xE0041FF0, 0x0010 Bytes, ...) -- CPU is running -- CPU_ReadMem(16 bytes @ 0xE0041FF0) - Data: 00 00 00 00 00 00 00 00 00 00 00 00 00 00 00 00  returns 0x00 (0001ms, 0678ms total)
T1C54 000:692 JLINK_GetDebugInfo(0x102) -- Value=0x00000000  returns 0x00 (0000ms, 0678ms total)
T1C54 000:692 JLINK_GetDebugInfo(0x103) -- Value=0x00000000  returns 0x00 (0000ms, 0678ms total)
T1C54 000:692 JLINK_ReadMem (0xE0040FF0, 0x0010 Bytes, ...) -- CPU is running -- CPU_ReadMem(16 bytes @ 0xE0040FF0) - Data: 00 00 00 00 00 00 00 00 00 00 00 00 00 00 00 00  returns 0x00 (0001ms, 0679ms total)
T1C54 000:693 JLINK_GetDebugInfo(0x104) -- Value=0xE0000000  returns 0x00 (0000ms, 0679ms total)
T1C54 000:693 JLINK_GetDebugInfo(0x105) -- Value=0xE0001000  returns 0x00 (0000ms, 0679ms total)
T1C54 000:693 JLINK_GetDebugInfo(0x106) -- Value=0xE0002000  returns 0x00 (0000ms, 0679ms total)
T1C54 000:693 JLINK_GetDebugInfo(0x107) -- Value=0xE000E000  returns 0x00 (0000ms, 0679ms total)
T1C54 000:693 JLINK_GetDebugInfo(0x10C) -- Value=0xE000EDF0  returns 0x00 (0000ms, 0679ms total)
T1C54 000:693 JLINK_ReadMemU32(0xE000ED00, 0x0001 Items, ...) -- CPU is running -- CPU_ReadMem(4 bytes @ 0xE000ED00) - Data: 01 C6 0C 41  returns 0x01 (0000ms, 0679ms total)
T1C54 000:693 JLINK_SetResetType(JLINKARM_RESET_TYPE_NORMAL)  returns JLINKARM_RESET_TYPE_NORMAL (0000ms, 0679ms total)
T1C54 000:693 JLINK_Reset() -- CPU_ReadMem(4 bytes @ 0x20000000) -- CPU_WriteMem(4 bytes @ 0x20000000) -- CPU is running -- CPU_WriteMem(4 bytes @ 0xE000EDF0) -- CPU is running -- CPU_WriteMem(4 bytes @ 0xE000EDFC) >0x35 TIF> -- CPU is running -- CPU_WriteMem(4 bytes @ 0xE000ED0C) -- CPU is running -- CPU_ReadMem(4 bytes @ 0xE000EDF0) -- CPU is running -- CPU_ReadMem(4 bytes @ 0xE000EDF0) -- CPU is running -- CPU_WriteMem(4 bytes @ 0xE000EDF0) -- CPU is running -- CPU_WriteMem(4 bytes @ 0xE000EDFC)
 -- CPU is running -- CPU_ReadMem(4 bytes @ 0xE000EDF0) -- CPU_WriteMem(4 bytes @ 0xE0002000) -- CPU_ReadMem(4 bytes @ 0xE000EDFC) -- CPU_ReadMem(4 bytes @ 0xE0001000) -- CPU_WriteMem(4 bytes @ 0xE0001000) (0021ms, 0700ms total)
T1C54 000:714 JLINK_ReadReg(R15 (PC))  returns 0x080000D4 (0000ms, 0700ms total)
T1C54 000:714 JLINK_ReadReg(XPSR)  returns 0xF1000000 (0000ms, 0700ms total)
T1C54 000:714 JLINK_Halt()  returns 0x00 (0000ms, 0700ms total)
T1C54 000:714 JLINK_IsHalted()  returns TRUE (0000ms, 0700ms total)
T1C54 000:714 JLINK_ReadMemU32(0xE000EDF0, 0x0001 Items, ...) -- CPU_ReadMem(4 bytes @ 0xE000EDF0) - Data: 03 00 03 01  returns 0x01 (0000ms, 0700ms total)
T1C54 000:714 JLINK_WriteU32(0xE000EDF0, 0xA05F0003) -- CPU_WriteMem(4 bytes @ 0xE000EDF0)  returns 0x00 (0001ms, 0701ms total)
T1C54 000:715 JLINK_WriteU32(0xE000EDFC, 0x01000000) -- CPU_WriteMem(4 bytes @ 0xE000EDFC)  returns 0x00 (0000ms, 0701ms total)
T1C54 000:716 JLINK_GetHWStatus(...)  returns 0x00 (0000ms, 0701ms total)
T1C54 000:716 JLINK_GetNumBPUnits(Type = 0xFFFFFF00)  returns 0x04 (0000ms, 0701ms total)
T1C54 000:716 JLINK_GetNumBPUnits(Type = 0xF0)  returns 0x2000 (0000ms, 0701ms total)
T1C54 000:716 JLINK_GetNumWPUnits()  returns 0x02 (0000ms, 0701ms total)
T1C54 000:717 JLINK_GetSpeed()  returns 0xFA0 (0000ms, 0701ms total)
T1C54 000:717 JLINK_ReadMemU32(0xE000E004, 0x0001 Items, ...) -- CPU_ReadMem(4 bytes @ 0xE000E004) - Data: 00 00 00 00  returns 0x01 (0000ms, 0701ms total)
T1C54 000:717 JLINK_ReadReg(R15 (PC))  returns 0x080000D4 (0000ms, 0701ms total)
T1C54 000:717 JLINK_ReadReg(XPSR)  returns 0xF1000000 (0000ms, 0701ms total)
T1C54 000:780 JLINK_SetResetType(JLINKARM_RESET_TYPE_NORMAL)  returns JLINKARM_RESET_TYPE_NORMAL (0000ms, 0701ms total)
T1C54 000:780 JLINK_Reset() -- CPU_WriteMem(4 bytes @ 0xE000EDF0) -- CPU_WriteMem(4 bytes @ 0xE000EDFC) >0x35 TIF> -- CPU_WriteMem(4 bytes @ 0xE000ED0C) -- CPU_ReadMem(4 bytes @ 0xE000EDF0) -- CPU_ReadMem(4 bytes @ 0xE000EDF0) -- CPU_WriteMem(4 bytes @ 0xE000EDF0) -- CPU_WriteMem(4 bytes @ 0xE000EDFC) -- CPU is running -- CPU_ReadMem(4 bytes @ 0xE000EDF0) -- CPU_WriteMem(4 bytes @ 0xE0002000) -- CPU_ReadMem(4 bytes @ 0xE000EDFC) -- CPU_ReadMem(4 bytes @ 0xE0001000) -- CPU_WriteMem(4 bytes @ 0xE0001000)
 (0020ms, 0721ms total)
T1C54 000:800 JLINK_ReadReg(R15 (PC))  returns 0x080000D4 (0000ms, 0721ms total)
T1C54 000:800 JLINK_ReadReg(XPSR)  returns 0xF1000000 (0000ms, 0721ms total)
T1C54 000:915 JLINK_ReadMem (0x080000D4, 0x003C Bytes, ...) -- CPU_ReadMem(128 bytes @ 0x080000C0) -- Updating C cache (128 bytes @ 0x080000C0) -- Read from C cache (60 bytes @ 0x080000D4) - Data: 04 48 80 47 04 48 00 47 FE E7 FE E7 FE E7 FE E7 ...  returns 0x00 (0002ms, 0723ms total)
T1C54 000:945 JLINK_ReadMem (0x40020000, 0x0004 Bytes, ...) -- CPU_ReadMem(4 bytes @ 0x40020000) - Data: 00 00 00 00  returns 0x00 (0000ms, 0723ms total)
T1C54 000:945 JLINK_ReadMem (0x40020008, 0x000C Bytes, ...) -- CPU_ReadMem(12 bytes @ 0x40020008) - Data: 00 00 00 00 00 00 00 00 00 00 00 00  returns 0x00 (0001ms, 0724ms total)
T1C54 000:946 JLINK_ReadMem (0x40020014, 0x0004 Bytes, ...) -- CPU_ReadMem(4 bytes @ 0x40020014) - Data: 00 00 00 00  returns 0x00 (0000ms, 0724ms total)
T1C54 000:946 JLINK_ReadMem (0x4002001C, 0x000C Bytes, ...) -- CPU_ReadMem(12 bytes @ 0x4002001C) - Data: 00 00 00 00 00 00 00 00 00 00 00 00  returns 0x00 (0001ms, 0725ms total)
T1C54 000:947 JLINK_ReadMem (0x40020028, 0x0004 Bytes, ...) -- CPU_ReadMem(4 bytes @ 0x40020028) - Data: 00 00 00 00  returns 0x00 (0000ms, 0725ms total)
T1C54 000:947 JLINK_ReadMem (0x40020030, 0x000C Bytes, ...) -- CPU_ReadMem(12 bytes @ 0x40020030) - Data: 00 00 00 00 00 00 00 00 00 00 00 00  returns 0x00 (0001ms, 0726ms total)
T1C54 000:948 JLINK_ReadMem (0x4002003C, 0x0004 Bytes, ...) -- CPU_ReadMem(4 bytes @ 0x4002003C) - Data: 00 00 00 00  returns 0x00 (0000ms, 0726ms total)
T1C54 000:948 JLINK_ReadMem (0x40020044, 0x000C Bytes, ...) -- CPU_ReadMem(12 bytes @ 0x40020044) - Data: 00 00 00 00 00 00 00 00 00 00 00 00  returns 0x00 (0001ms, 0727ms total)
T1C54 000:949 JLINK_ReadMem (0x40020050, 0x0004 Bytes, ...) -- CPU_ReadMem(4 bytes @ 0x40020050) - Data: 00 00 00 00  returns 0x00 (0000ms, 0727ms total)
T1C54 000:949 JLINK_ReadMem (0x40020058, 0x000C Bytes, ...) -- CPU_ReadMem(12 bytes @ 0x40020058) - Data: 00 00 00 00 00 00 00 00 00 00 00 00  returns 0x00 (0001ms, 0728ms total)
T1C54 000:950 JLINK_ReadMem (0x40020064, 0x0004 Bytes, ...) -- CPU_ReadMem(4 bytes @ 0x40020064) - Data: 00 00 00 00  returns 0x00 (0000ms, 0728ms total)
T1C54 000:950 JLINK_ReadMem (0x4002006C, 0x000C Bytes, ...) -- CPU_ReadMem(12 bytes @ 0x4002006C) - Data: 00 00 00 00 00 00 00 00 00 00 00 00  returns 0x00 (0001ms, 0729ms total)
T1C54 000:951 JLINK_ReadMem (0x40020078, 0x0004 Bytes, ...) -- CPU_ReadMem(4 bytes @ 0x40020078) - Data: 00 00 00 00  returns 0x00 (0001ms, 0730ms total)
T1C54 000:952 JLINK_ReadMem (0x40020080, 0x000C Bytes, ...) -- CPU_ReadMem(12 bytes @ 0x40020080) - Data: 00 00 00 00 00 00 00 00 00 00 00 00  returns 0x00 (0000ms, 0730ms total)
T1C54 000:952 JLINK_ReadMem (0x4002008C, 0x0004 Bytes, ...) -- CPU_ReadMem(4 bytes @ 0x4002008C) - Data: 00 00 00 00  returns 0x00 (0001ms, 0731ms total)
T1C54 000:953 JLINK_ReadMem (0x400200A8, 0x0004 Bytes, ...) -- CPU_ReadMem(4 bytes @ 0x400200A8) - Data: 00 00 00 00  returns 0x00 (0000ms, 0731ms total)
T1C54 000:988 JLINK_ReadMem (0x40013000, 0x0020 Bytes, ...) -- CPU_ReadMem(32 bytes @ 0x40013000) - Data: 00 00 00 00 00 00 00 00 00 00 00 00 00 00 00 00 ...  returns 0x00 (0001ms, 0732ms total)
T1C54 000:989 JLINK_ReadMem (0x40013020, 0x0004 Bytes, ...) -- CPU_ReadMem(4 bytes @ 0x40013020) - Data: 00 00 00 00  returns 0x00 (0000ms, 0732ms total)
T1C54 001:022 JLINK_ReadMem (0x40003800, 0x0020 Bytes, ...) -- CPU_ReadMem(32 bytes @ 0x40003800) - Data: 00 00 00 00 00 00 00 00 00 00 00 00 00 00 00 00 ...  returns 0x00 (0001ms, 0733ms total)
T1C54 001:023 JLINK_ReadMem (0x40003820, 0x0004 Bytes, ...) -- CPU_ReadMem(4 bytes @ 0x40003820) - Data: 00 00 00 00  returns 0x00 (0001ms, 0734ms total)
T5308 002:223 JLINK_SetBPEx(Addr = 0x08002E10, Type = 0xFFFFFFF2)  returns 0x00000001 (0000ms, 0734ms total)
T5308 002:223 JLINK_Go() -- CPU_WriteMem(4 bytes @ 0xE0002000) -- CPU_ReadMem(4 bytes @ 0xE0001000) -- CPU_WriteMem(4 bytes @ 0xE0001000) -- CPU_WriteMem(4 bytes @ 0xE0002008) -- CPU_WriteMem(4 bytes @ 0xE000200C) -- CPU_WriteMem(4 bytes @ 0xE0002010) -- CPU_WriteMem(4 bytes @ 0xE0002014) -- CPU_WriteMem(4 bytes @ 0xE0001004) (0005ms, 0739ms total)
T5308 002:328 JLINK_IsHalted()  returns TRUE (0003ms, 0742ms total)
T5308 002:331 JLINK_Halt()  returns 0x00 (0000ms, 0739ms total)
T5308 002:331 JLINK_IsHalted()  returns TRUE (0000ms, 0739ms total)
T5308 002:331 JLINK_IsHalted()  returns TRUE (0000ms, 0739ms total)
T5308 002:331 JLINK_IsHalted()  returns TRUE (0000ms, 0739ms total)
T5308 002:331 JLINK_ReadReg(R15 (PC))  returns 0x08002E10 (0000ms, 0739ms total)
T5308 002:331 JLINK_ReadReg(XPSR)  returns 0x61000000 (0000ms, 0739ms total)
T5308 002:331 JLINK_ClrBPEx(BPHandle = 0x00000001)  returns 0x00 (0000ms, 0739ms total)
T5308 002:331 JLINK_ReadMemU32(0xE000ED30, 0x0001 Items, ...) -- CPU_ReadMem(4 bytes @ 0xE000ED30) - Data: 03 00 00 00  returns 0x01 (0000ms, 0739ms total)
T5308 002:333 JLINK_ReadMemU32(0xE0001028, 0x0001 Items, ...) -- CPU_ReadMem(4 bytes @ 0xE0001028) - Data: 00 00 00 00  returns 0x01 (0000ms, 0741ms total)
T5308 002:333 JLINK_ReadMemU32(0xE0001038, 0x0001 Items, ...) -- CPU_ReadMem(4 bytes @ 0xE0001038) - Data: 00 00 00 00  returns 0x01 (0000ms, 0741ms total)
T5308 002:333 JLINK_ReadReg(R0)  returns 0x08002E11 (0000ms, 0741ms total)
T5308 002:333 JLINK_ReadReg(R1)  returns 0x20001A38 (0000ms, 0741ms total)
T5308 002:333 JLINK_ReadReg(R2)  returns 0x00000000 (0000ms, 0741ms total)
T5308 002:333 JLINK_ReadReg(R3)  returns 0x08002BB9 (0000ms, 0741ms total)
T5308 002:333 JLINK_ReadReg(R4)  returns 0x08003134 (0000ms, 0741ms total)
T5308 002:333 JLINK_ReadReg(R5)  returns 0x00000001 (0000ms, 0741ms total)
T5308 002:333 JLINK_ReadReg(R6)  returns 0x08003134 (0000ms, 0741ms total)
T5308 002:333 JLINK_ReadReg(R7)  returns 0xFFFFFFFF (0000ms, 0741ms total)
T5308 002:333 JLINK_ReadReg(R8)  returns 0xFFFFFFFF (0000ms, 0741ms total)
T5308 002:333 JLINK_ReadReg(R9)  returns 0xFFFFFFFF (0000ms, 0741ms total)
T5308 002:333 JLINK_ReadReg(R10)  returns 0xFFFFFFFF (0000ms, 0741ms total)
T5308 002:333 JLINK_ReadReg(R11)  returns 0xFFFFFFFF (0000ms, 0741ms total)
T5308 002:333 JLINK_ReadReg(R12)  returns 0xFFFFFFFF (0000ms, 0741ms total)
T5308 002:333 JLINK_ReadReg(R13 (SP))  returns 0x20001A38 (0000ms, 0741ms total)
T5308 002:333 JLINK_ReadReg(R14)  returns 0x08000181 (0000ms, 0741ms total)
T5308 002:333 JLINK_ReadReg(R15 (PC))  returns 0x08002E10 (0000ms, 0741ms total)
T5308 002:333 JLINK_ReadReg(XPSR)  returns 0x61000000 (0000ms, 0741ms total)
T5308 002:333 JLINK_ReadReg(MSP)  returns 0x20001A38 (0000ms, 0741ms total)
T5308 002:333 JLINK_ReadReg(PSP)  returns 0xFFFFFFFC (0000ms, 0741ms total)
T5308 002:333 JLINK_ReadReg(CFBP)  returns 0x00000000 (0000ms, 0741ms total)
T1C54 002:338 JLINK_ReadMem (0x40003800, 0x0020 Bytes, ...) -- CPU_ReadMem(32 bytes @ 0x40003800) - Data: 00 00 00 00 00 00 00 00 00 00 00 00 00 00 00 00 ...  returns 0x00 (0001ms, 0742ms total)
T1C54 002:339 JLINK_ReadMem (0x40003820, 0x0004 Bytes, ...) -- CPU_ReadMem(4 bytes @ 0x40003820) - Data: 00 00 00 00  returns 0x00 (0000ms, 0742ms total)
T1C54 002:340 JLINK_ReadMem (0x40020000, 0x0004 Bytes, ...) -- CPU_ReadMem(4 bytes @ 0x40020000) - Data: 00 00 00 00  returns 0x00 (0000ms, 0743ms total)
T1C54 002:340 JLINK_ReadMem (0x40020008, 0x000C Bytes, ...) -- CPU_ReadMem(12 bytes @ 0x40020008) - Data: 00 00 00 00 00 00 00 00 00 00 00 00  returns 0x00 (0001ms, 0744ms total)
T1C54 002:341 JLINK_ReadMem (0x40020014, 0x0004 Bytes, ...) -- CPU_ReadMem(4 bytes @ 0x40020014) - Data: 00 00 00 00  returns 0x00 (0001ms, 0745ms total)
T1C54 002:342 JLINK_ReadMem (0x4002001C, 0x000C Bytes, ...) -- CPU_ReadMem(12 bytes @ 0x4002001C) - Data: 00 00 00 00 00 00 00 00 00 00 00 00  returns 0x00 (0000ms, 0745ms total)
T1C54 002:342 JLINK_ReadMem (0x40020028, 0x0004 Bytes, ...) -- CPU_ReadMem(4 bytes @ 0x40020028) - Data: 00 00 00 00  returns 0x00 (0001ms, 0746ms total)
T1C54 002:343 JLINK_ReadMem (0x40020030, 0x000C Bytes, ...) -- CPU_ReadMem(12 bytes @ 0x40020030) - Data: 00 00 00 00 00 00 00 00 00 00 00 00  returns 0x00 (0000ms, 0746ms total)
T1C54 002:344 JLINK_ReadMem (0x4002003C, 0x0004 Bytes, ...) -- CPU_ReadMem(4 bytes @ 0x4002003C) - Data: 00 00 00 00  returns 0x00 (0000ms, 0746ms total)
T1C54 002:344 JLINK_ReadMem (0x40020044, 0x000C Bytes, ...) -- CPU_ReadMem(12 bytes @ 0x40020044) - Data: 00 00 00 00 00 00 00 00 00 00 00 00  returns 0x00 (0001ms, 0747ms total)
T1C54 002:345 JLINK_ReadMem (0x40020050, 0x0004 Bytes, ...) -- CPU_ReadMem(4 bytes @ 0x40020050) - Data: 00 00 00 00  returns 0x00 (0000ms, 0747ms total)
T1C54 002:345 JLINK_ReadMem (0x40020058, 0x000C Bytes, ...) -- CPU_ReadMem(12 bytes @ 0x40020058) - Data: 00 00 00 00 00 00 00 00 00 00 00 00  returns 0x00 (0001ms, 0748ms total)
T1C54 002:346 JLINK_ReadMem (0x40020064, 0x0004 Bytes, ...) -- CPU_ReadMem(4 bytes @ 0x40020064) - Data: 00 00 00 00  returns 0x00 (0000ms, 0748ms total)
T1C54 002:346 JLINK_ReadMem (0x4002006C, 0x000C Bytes, ...) -- CPU_ReadMem(12 bytes @ 0x4002006C) - Data: 00 00 00 00 00 00 00 00 00 00 00 00  returns 0x00 (0001ms, 0749ms total)
T1C54 002:347 JLINK_ReadMem (0x40020078, 0x0004 Bytes, ...) -- CPU_ReadMem(4 bytes @ 0x40020078) - Data: 00 00 00 00  returns 0x00 (0000ms, 0749ms total)
T1C54 002:347 JLINK_ReadMem (0x40020080, 0x000C Bytes, ...) -- CPU_ReadMem(12 bytes @ 0x40020080) - Data: 00 00 00 00 00 00 00 00 00 00 00 00  returns 0x00 (0001ms, 0750ms total)
T1C54 002:348 JLINK_ReadMem (0x4002008C, 0x0004 Bytes, ...) -- CPU_ReadMem(4 bytes @ 0x4002008C) - Data: 00 00 00 00  returns 0x00 (0000ms, 0750ms total)
T1C54 002:348 JLINK_ReadMem (0x400200A8, 0x0004 Bytes, ...) -- CPU_ReadMem(4 bytes @ 0x400200A8) - Data: 00 00 00 00  returns 0x00 (0001ms, 0751ms total)
T1C54 002:349 JLINK_ReadMem (0x40013000, 0x0020 Bytes, ...) -- CPU_ReadMem(32 bytes @ 0x40013000) - Data: 00 00 00 00 00 00 00 00 00 00 00 00 00 00 00 00 ...  returns 0x00 (0001ms, 0752ms total)
T1C54 002:350 JLINK_ReadMem (0x40013020, 0x0004 Bytes, ...) -- CPU_ReadMem(4 bytes @ 0x40013020) - Data: 00 00 00 00  returns 0x00 (0000ms, 0752ms total)
T1C54 002:354 JLINK_ReadMem (0x08002D10, 0x003C Bytes, ...) -- CPU_ReadMem(128 bytes @ 0x08002D00) -- Updating C cache (128 bytes @ 0x08002D00) -- Read from C cache (60 bytes @ 0x08002D10) - Data: 02 70 41 70 C8 20 FD F7 FC FE FF F7 DF FF 01 20 ...  returns 0x00 (0002ms, 0754ms total)
T1C54 002:356 JLINK_ReadMem (0x08002D50, 0x003C Bytes, ...) -- CPU_ReadMem(64 bytes @ 0x08002D80) -- Updating C cache (64 bytes @ 0x08002D80) -- Read from C cache (60 bytes @ 0x08002D50) - Data: F8 B5 FF 24 05 25 01 34 2D 07 00 22 21 46 28 46 ...  returns 0x00 (0001ms, 0755ms total)
T1C54 002:357 JLINK_ReadMem (0x08002D8C, 0x003C Bytes, ...) -- CPU_ReadMem(64 bytes @ 0x08002DC0) -- Updating C cache (64 bytes @ 0x08002DC0) -- Read from C cache (60 bytes @ 0x08002D8C) - Data: 01 22 31 46 38 46 FD F7 C1 FF 7D 20 C0 00 FD F7 ...  returns 0x00 (0001ms, 0756ms total)
T1C54 002:358 JLINK_ReadMem (0x08002DC8, 0x003C Bytes, ...) -- CPU_ReadMem(64 bytes @ 0x08002E00) -- Updating C cache (64 bytes @ 0x08002E00) -- Read from C cache (60 bytes @ 0x08002DC8) - Data: 00 21 08 46 FF F7 AC FF 21 46 0E 48 FF F7 F8 FE ...  returns 0x00 (0001ms, 0757ms total)
T1C54 002:359 JLINK_ReadMem (0x08002E0E, 0x0002 Bytes, ...) -- Read from C cache (2 bytes @ 0x08002E0E) - Data: 00 20  returns 0x00 (0000ms, 0757ms total)
T1C54 002:359 JLINK_ReadMem (0x08002E10, 0x003C Bytes, ...) -- CPU_ReadMem(64 bytes @ 0x08002E40) -- Updating C cache (64 bytes @ 0x08002E40) -- Read from C cache (60 bytes @ 0x08002E10) - Data: 1C B5 FD F7 EF FF FF 21 05 20 00 22 01 31 00 07 ...  returns 0x00 (0001ms, 0758ms total)
T5308 003:467 JLINK_Go() -- CPU_ReadMem(4 bytes @ 0xE0001000) -- CPU_WriteMem(4 bytes @ 0xE0001000) -- CPU_WriteMem(4 bytes @ 0xE0002008) (0002ms, 0760ms total)
T5308 003:571 JLINK_IsHalted()  returns FALSE (0000ms, 0760ms total)
T5308 003:672 JLINK_IsHalted()  returns FALSE (0000ms, 0760ms total)
T5308 003:773 JLINK_IsHalted()  returns FALSE (0000ms, 0760ms total)
T5308 003:875 JLINK_IsHalted()  returns FALSE (0000ms, 0760ms total)
T5308 003:975 JLINK_IsHalted()  returns FALSE (0000ms, 0760ms total)
T1C54 004:077 JLINK_ReadMem (0x40003800, 0x0020 Bytes, ...) -- CPU is running -- CPU_ReadMem(32 bytes @ 0x40003800) - Data: 07 0D 00 00 04 00 00 00 02 00 00 00 00 00 00 00 ...  returns 0x00 (0001ms, 0761ms total)
T1C54 004:078 JLINK_ReadMem (0x40003820, 0x0004 Bytes, ...) -- CPU is running -- CPU_ReadMem(4 bytes @ 0x40003820) - Data: 02 00 00 00  returns 0x00 (0000ms, 0761ms total)
T1C54 004:087 JLINK_ReadMem (0x40020000, 0x0004 Bytes, ...) -- CPU is running -- CPU_ReadMem(4 bytes @ 0x40020000) - Data: 00 00 00 00  returns 0x00 (0001ms, 0762ms total)
T1C54 004:088 JLINK_ReadMem (0x40020008, 0x000C Bytes, ...) -- CPU is running -- CPU_ReadMem(12 bytes @ 0x40020008) - Data: 00 00 00 00 00 00 00 00 00 00 00 00  returns 0x00 (0000ms, 0762ms total)
T1C54 004:088 JLINK_ReadMem (0x40020014, 0x0004 Bytes, ...) -- CPU is running -- CPU_ReadMem(4 bytes @ 0x40020014) - Data: 00 00 00 00  returns 0x00 (0001ms, 0763ms total)
T1C54 004:089 JLINK_ReadMem (0x4002001C, 0x000C Bytes, ...) -- CPU is running -- CPU_ReadMem(12 bytes @ 0x4002001C) - Data: 00 00 00 00 00 00 00 00 00 00 00 00  returns 0x00 (0000ms, 0763ms total)
T1C54 004:089 JLINK_ReadMem (0x40020028, 0x0004 Bytes, ...) -- CPU is running -- CPU_ReadMem(4 bytes @ 0x40020028) - Data: 00 00 00 00  returns 0x00 (0001ms, 0764ms total)
T1C54 004:090 JLINK_ReadMem (0x40020030, 0x000C Bytes, ...) -- CPU is running -- CPU_ReadMem(12 bytes @ 0x40020030) - Data: 99 00 00 00 00 00 00 00 0C 30 01 40  returns 0x00 (0000ms, 0764ms total)
T1C54 004:090 JLINK_ReadMem (0x4002003C, 0x0004 Bytes, ...) -- CPU is running -- CPU_ReadMem(4 bytes @ 0x4002003C) - Data: 16 04 00 20  returns 0x00 (0001ms, 0765ms total)
T1C54 004:091 JLINK_ReadMem (0x40020044, 0x000C Bytes, ...) -- CPU is running -- CPU_ReadMem(12 bytes @ 0x40020044) - Data: 80 35 00 00 00 00 00 00 00 00 00 00  returns 0x00 (0000ms, 0765ms total)
T1C54 004:091 JLINK_ReadMem (0x40020050, 0x0004 Bytes, ...) -- CPU is running -- CPU_ReadMem(4 bytes @ 0x40020050) - Data: 00 00 00 00  returns 0x00 (0001ms, 0766ms total)
T1C54 004:092 JLINK_ReadMem (0x40020058, 0x000C Bytes, ...) -- CPU is running -- CPU_ReadMem(12 bytes @ 0x40020058) - Data: 00 00 00 00 00 00 00 00 00 00 00 00  returns 0x00 (0000ms, 0766ms total)
T1C54 004:092 JLINK_ReadMem (0x40020064, 0x0004 Bytes, ...) -- CPU is running -- CPU_ReadMem(4 bytes @ 0x40020064) - Data: 00 00 00 00  returns 0x00 (0000ms, 0766ms total)
T1C54 004:092 JLINK_ReadMem (0x4002006C, 0x000C Bytes, ...) -- CPU is running -- CPU_ReadMem(12 bytes @ 0x4002006C) - Data: 00 00 00 00 00 00 00 00 00 00 00 00  returns 0x00 (0001ms, 0767ms total)
T1C54 004:093 JLINK_ReadMem (0x40020078, 0x0004 Bytes, ...) -- CPU is running -- CPU_ReadMem(4 bytes @ 0x40020078) - Data: 00 00 00 00  returns 0x00 (0000ms, 0767ms total)
T1C54 004:093 JLINK_ReadMem (0x40020080, 0x000C Bytes, ...) -- CPU is running -- CPU_ReadMem(12 bytes @ 0x40020080) - Data: 00 00 00 00 00 00 00 00 00 00 00 00  returns 0x00 (0001ms, 0768ms total)
T1C54 004:094 JLINK_ReadMem (0x4002008C, 0x0004 Bytes, ...) -- CPU is running -- CPU_ReadMem(4 bytes @ 0x4002008C) - Data: 00 00 00 00  returns 0x00 (0001ms, 0769ms total)
T1C54 004:095 JLINK_ReadMem (0x400200A8, 0x0004 Bytes, ...) -- CPU is running -- CPU_ReadMem(4 bytes @ 0x400200A8) - Data: 00 21 00 00  returns 0x00 (0000ms, 0769ms total)
T1C54 004:096 JLINK_ReadMem (0x40013000, 0x0020 Bytes, ...) -- CPU is running -- CPU_ReadMem(32 bytes @ 0x40013000) - Data: 44 03 00 00 00 00 00 00 02 00 00 00 00 00 00 00 ...  returns 0x00 (0000ms, 0769ms total)
T1C54 004:096 JLINK_ReadMem (0x40013020, 0x0004 Bytes, ...) -- CPU is running -- CPU_ReadMem(4 bytes @ 0x40013020) - Data: 00 00 00 00  returns 0x00 (0001ms, 0770ms total)
T5308 004:097 JLINK_IsHalted()  returns FALSE (0001ms, 0771ms total)
T5308 004:199 JLINK_IsHalted()  returns FALSE (0000ms, 0770ms total)
T5308 004:300 JLINK_IsHalted()  returns FALSE (0000ms, 0770ms total)
T5308 004:401 JLINK_IsHalted()  returns FALSE (0000ms, 0770ms total)
